
T3918 000:349 SEGGER J-Link V5.02f Log File (0001ms, 0272ms total)
T3918 000:349 DLL Compiled: Oct  2 2015 20:51:34 (0001ms, 0272ms total)
T3918 000:349 Logging started @ 2021-10-11 14:14 (0001ms, 0272ms total)
T3918 000:350 JLINK_SetWarnOutHandler(...) (0000ms, 0272ms total)
T3918 000:350 JLINK_OpenEx(...)
Firmware: J-Link V9 compiled May 17 2019 09:50:41
Hardware: V9.60
S/N: 69614403
Feature(s): RDI, GDB, FlashDL, FlashBP, JFlash  returns O.K. (0267ms, 0539ms total)
T3918 000:617 JLINK_SetErrorOutHandler(...) (0000ms, 0539ms total)
T3918 000:617 JLINK_ExecCommand("ProjectFile = "d:\Users\ybliuzy\Desktop\提交测试\V9\sendfm33a0新标准南网645表程序v2.0h_内置\KeilM645N\JLinkSettings.ini"", ...)Device "CORTEX-M0" selected.  returns 0x00 (0005ms, 0544ms total)
T3918 000:637 JLINK_ExecCommand("Device = FM32L020", ...)Device "CORTEX-M0" selected.  returns 0x00 (0012ms, 0556ms total)
T3918 000:649 JLINK_ExecCommand("DisableConnectionTimeout", ...)  returns 0x01 (0000ms, 0556ms total)
T3918 000:649 JLINK_GetHardwareVersion()  returns 0x17700 (0000ms, 0556ms total)
T3918 000:649 JLINK_GetDLLVersion()  returns 50206 (0000ms, 0556ms total)
T3918 000:649 JLINK_GetFirmwareString(...) (0000ms, 0556ms total)
T3918 000:666 JLINK_GetDLLVersion()  returns 50206 (0000ms, 0556ms total)
T3918 000:666 JLINK_GetCompileDateTime() (0000ms, 0556ms total)
T3918 000:670 JLINK_GetFirmwareString(...) (0000ms, 0556ms total)
T3918 000:674 JLINK_GetHardwareVersion()  returns 0x17700 (0000ms, 0556ms total)
T3918 000:693 JLINK_TIF_Select(JLINKARM_TIF_SWD)  returns 0x00 (0001ms, 0557ms total)
T3918 000:694 JLINK_SetSpeed(3000) (0000ms, 0557ms total)
T3918 000:694 JLINK_GetId() >0x108 TIF> >0x108 TIF> >0x108 TIF> >0x108 TIF> >0x108 TIF> >0x108 TIF> >0x108 TIF> >0x108 TIF> >0x108 TIF> >0x108 TIF>
                JLINK_EMU_HasCapEx(0x0000002C)  returns 0x01 (0000ms, 0000ms total)
               >0x0D TIF> >0x21 TIF> >0x0D TIF> >0x28 TIF> >0x0D TIF> >0x28 TIF> >0x0D TIF> >0x21 TIF> >0x0D TIF> >0x28 TIF> >0x0D TIF> >0x21 TIF> >0x0D TIF> >0x21 TIF> >0x0D TIF> >0x21 TIF> >0x0D TIF> >0x21 TIF> >0x0D TIF> >0x28 TIF> >0x0D TIF> >0x28 TIF> >0x0D TIF> >0x21 TIF> >0x0D TIF> >0x28 TIF> >0x0D TIF> >0x28 TIF> >0x0D TIF> >0x28 TIF> >0x0D TIF> >0x21 TIF> >0x0D TIF> >0x21 TIF> >0x0D TIF> >0x28 TIF> >0x0D TIF> >0x21 TIF> >0x0D TIF> >0x21 TIF>Found Cortex-M0 r0p0, Little endian.
 -- CPU_ReadMem(4 bytes @ 0xE000EDF0) -- CPU_ReadMem(4 bytes @ 0xE0002000)FPUnit: 4 code (BP) slots and 0 literal slots -- CPU_ReadMem(4 bytes @ 0xE000EDFC) -- CPU_ReadMem(4 bytes @ 0xE0001000) -- CPU_WriteMem(4 bytes @ 0xE0001000)CoreSight components:ROMTbl 0 @ E00FF000 -- CPU_ReadMem(16 bytes @ 0xE00FF000) -- CPU_ReadMem(16 bytes @ 0xE000EFF0) -- CPU_ReadMem(16 bytes @ 0xE000EFE0)ROMTbl 0 [0]: FFF0F000, CID: B105E00D, PID: 000BB00D SCS -- CPU_ReadMem(16 bytes @ 0xE0001FF0)
 -- CPU_ReadMem(16 bytes @ 0xE0001FE0)ROMTbl 0 [1]: FFF02000, CID: B105E00D, PID: 000BB00A DWT -- CPU_ReadMem(16 bytes @ 0xE0002FF0) -- CPU_ReadMem(16 bytes @ 0xE0002FE0)ROMTbl 0 [2]: FFF03000, CID: B105E00D, PID: 000BB00B FPB >0x0D TIF> >0x21 TIF>  returns 0x0BB11477 (2790ms, 3347ms total)
T3918 003:484 JLINK_GetDLLVersion()  returns 50206 (0000ms, 3347ms total)
T3918 003:484 JLINK_CORE_GetFound()  returns 0x60000FF (0000ms, 3347ms total)
T3918 003:484 JLINK_GetDebugInfo(0x100) -- Value=0xE00FF003  returns 0x00 (0000ms, 3347ms total)
T3918 003:488 JLINK_GetDebugInfo(0x100) -- Value=0xE00FF003  returns 0x00 (0000ms, 3347ms total)
T3918 003:488 JLINK_GetDebugInfo(0x101) -- Value=0x00000000  returns 0x00 (0000ms, 3347ms total)
T3918 003:488 JLINK_ReadMem (0xE0041FF0, 0x0010 Bytes, ...) -- CPU is running -- CPU_ReadMem(16 bytes @ 0xE0041FF0) - Data: 00 00 00 00 00 00 00 00 00 00 00 00 00 00 00 00  returns 0x00 (0001ms, 3348ms total)
T3918 003:489 JLINK_GetDebugInfo(0x102) -- Value=0x00000000  returns 0x00 (0000ms, 3348ms total)
T3918 003:489 JLINK_GetDebugInfo(0x103) -- Value=0x00000000  returns 0x00 (0000ms, 3348ms total)
T3918 003:489 JLINK_ReadMem (0xE0040FF0, 0x0010 Bytes, ...) -- CPU is running -- CPU_ReadMem(16 bytes @ 0xE0040FF0) - Data: 00 00 00 00 00 00 00 00 00 00 00 00 00 00 00 00  returns 0x00 (0001ms, 3349ms total)
T3918 003:490 JLINK_GetDebugInfo(0x104) -- Value=0xE0000000  returns 0x00 (0000ms, 3349ms total)
T3918 003:490 JLINK_GetDebugInfo(0x105) -- Value=0xE0001000  returns 0x00 (0000ms, 3349ms total)
T3918 003:490 JLINK_GetDebugInfo(0x106) -- Value=0xE0002000  returns 0x00 (0000ms, 3349ms total)
T3918 003:490 JLINK_GetDebugInfo(0x107) -- Value=0xE000E000  returns 0x00 (0000ms, 3349ms total)
T3918 003:490 JLINK_GetDebugInfo(0x10C) -- Value=0xE000EDF0  returns 0x00 (0000ms, 3349ms total)
T3918 003:490 JLINK_ReadMemU32(0xE000ED00, 0x0001 Items, ...) -- CPU is running -- CPU_ReadMem(4 bytes @ 0xE000ED00) - Data: 00 C3 0C 41  returns 0x01 (0001ms, 3350ms total)
T3918 003:491 JLINK_SetResetType(JLINKARM_RESET_TYPE_ADI)  returns JLINKARM_RESET_TYPE_NORMAL (0000ms, 3350ms total)
T3918 003:491 JLINK_Reset() -- CPU is running -- CPU_WriteMem(4 bytes @ 0xE000EDF0) -- CPU is running -- CPU_WriteMem(4 bytes @ 0xE000EDFC) -- CPU_WriteMem(4 bytes @ 0xE000EDF0) -- CPU_WriteMem(4 bytes @ 0xE000EDFC) -- CPU_ReadMem(4 bytes @ 0xE000EDF0) -- CPU_WriteMem(4 bytes @ 0xE000EDFC) -- CPU_WriteMem(4 bytes @ 0xE000ED0C) -- CPU_ReadMem(4 bytes @ 0xE000EDF0) -- CPU_ReadMem(4 bytes @ 0xE000EDF0) -- CPU_WriteMem(4 bytes @ 0xE000EDF0) -- CPU_WriteMem(4 bytes @ 0xE000EDFC) -- CPU is running
 -- CPU_ReadMem(4 bytes @ 0xE000EDF0) -- CPU_WriteMem(4 bytes @ 0xE0002000) -- CPU_ReadMem(4 bytes @ 0xE000EDFC) -- CPU_ReadMem(4 bytes @ 0xE0001000) -- CPU_WriteMem(4 bytes @ 0xE0001000) (0163ms, 3513ms total)
T3918 003:655 JLINK_Halt()  returns 0x00 (0000ms, 3513ms total)
T3918 003:655 JLINK_IsHalted()  returns TRUE (0000ms, 3513ms total)
T3918 003:655 JLINK_ReadMemU32(0xE000EDF0, 0x0001 Items, ...) -- CPU_ReadMem(4 bytes @ 0xE000EDF0) - Data: 03 00 03 00  returns 0x01 (0000ms, 3513ms total)
T3918 003:655 JLINK_WriteU32(0xE000EDF0, 0xA05F0003) -- CPU_WriteMem(4 bytes @ 0xE000EDF0)  returns 0x00 (0001ms, 3514ms total)
T3918 003:656 JLINK_WriteU32(0xE000EDFC, 0x01000000) -- CPU_WriteMem(4 bytes @ 0xE000EDFC)  returns 0x00 (0000ms, 3514ms total)
T3918 003:671 JLINK_GetHWStatus(...)  returns 0x00 (0002ms, 3516ms total)
T3918 003:691 JLINK_GetNumBPUnits(Type = 0xFFFFFF00)  returns 0x04 (0000ms, 3516ms total)
T3918 003:691 JLINK_GetNumBPUnits(Type = 0xF0)  returns 0x2000 (0000ms, 3516ms total)
T3918 003:691 JLINK_GetNumWPUnits()  returns 0x01 (0000ms, 3516ms total)
T3918 003:702 JLINK_GetSpeed()  returns 0x39C (0000ms, 3516ms total)
T3918 003:713 JLINK_ReadMemU32(0xE000E004, 0x0001 Items, ...) -- CPU_ReadMem(4 bytes @ 0xE000E004) - Data: 00 00 00 00  returns 0x01 (0001ms, 3517ms total)
T3918 003:732 JLINK_ReadReg(R0)  returns 0x00000000 (0000ms, 3517ms total)
T3918 003:732 JLINK_ReadReg(R1)  returns 0x200005E4 (0000ms, 3517ms total)
T3918 003:732 JLINK_ReadReg(R2)  returns 0x00001ED8 (0000ms, 3517ms total)
T3918 003:732 JLINK_ReadReg(R3)  returns 0x00021CB3 (0000ms, 3517ms total)
T3918 003:732 JLINK_ReadReg(R4)  returns 0x00022024 (0000ms, 3517ms total)
T3918 003:732 JLINK_ReadReg(R5)  returns 0x00000001 (0000ms, 3517ms total)
T3918 003:732 JLINK_ReadReg(R6)  returns 0x00022044 (0000ms, 3517ms total)
T3918 003:732 JLINK_ReadReg(R7)  returns 0x00000000 (0000ms, 3517ms total)
T3918 003:732 JLINK_ReadReg(R8)  returns 0x00000000 (0000ms, 3517ms total)
T3918 003:732 JLINK_ReadReg(R9)  returns 0x20000170 (0000ms, 3517ms total)
T3918 003:732 JLINK_ReadReg(R10)  returns 0x00000000 (0000ms, 3517ms total)
T3918 003:732 JLINK_ReadReg(R11)  returns 0x00000000 (0000ms, 3517ms total)
T3918 003:732 JLINK_ReadReg(R12)  returns 0x00000000 (0000ms, 3517ms total)
T3918 003:732 JLINK_ReadReg(R13 (SP))  returns 0x20005E00 (0000ms, 3517ms total)
T3918 003:732 JLINK_ReadReg(R14)  returns 0x00000BEF (0000ms, 3517ms total)
T3918 003:732 JLINK_ReadReg(R15 (PC))  returns 0x000000D4 (0000ms, 3517ms total)
T3918 003:732 JLINK_ReadReg(XPSR)  returns 0xC1000000 (0000ms, 3517ms total)
T3918 003:732 JLINK_ReadReg(MSP)  returns 0x20005E00 (0000ms, 3517ms total)
T3918 003:732 JLINK_ReadReg(PSP)  returns 0x20001000 (0000ms, 3517ms total)
T3918 003:732 JLINK_ReadReg(CFBP)  returns 0x00000000 (0000ms, 3517ms total)
T3918 003:822 JLINK_WriteMem(0x4000022C, 0x0004 Bytes, ...) - Data: 20 00 06 00 -- CPU_WriteMem(4 bytes @ 0x4000022C)  returns 0x04 (0002ms, 3519ms total)
T3918 003:854 JLINK_WriteMem(0x40001014, 0x0004 Bytes, ...) - Data: 00 02 00 80 -- CPU_WriteMem(4 bytes @ 0x40001014)  returns 0x04 (0001ms, 3520ms total)
T3918 003:863 JLINK_WriteMem(0x40001014, 0x0004 Bytes, ...) - Data: 01 02 00 80 -- CPU_WriteMem(4 bytes @ 0x40001014)  returns 0x04 (0001ms, 3521ms total)
T3918 003:874 JLINK_WriteMem(0x40001018, 0x0004 Bytes, ...) - Data: 96 96 96 96 -- CPU_WriteMem(4 bytes @ 0x40001018)  returns 0x04 (0000ms, 3521ms total)
T3918 003:889 JLINK_WriteMem(0x40001018, 0x0004 Bytes, ...) - Data: 7D 7D 7D 7D -- CPU_WriteMem(4 bytes @ 0x40001018)  returns 0x04 (0001ms, 3522ms total)
T3918 003:905 JLINK_WriteMem(0x00000000, 0x0004 Bytes, ...) - Data: CD AB 34 12 -- CPU_WriteMem(4 bytes @ 0x00000000)  returns 0x04 (0001ms, 3523ms total)
T3918 005:405 JLINK_WriteMem(0x40001018, 0x0004 Bytes, ...) - Data: 00 00 00 00 -- CPU_WriteMem(4 bytes @ 0x40001018)  returns 0x04 (0001ms, 3524ms total)
T3918 005:406 JLINK_ReadMem (0x40001014, 0x0004 Bytes, ...) -- CPU_ReadMem(4 bytes @ 0x40001014) - Data: 00 02 00 00  returns 0x00 (0001ms, 3525ms total)
T3918 005:409 JLINK_Halt()  returns 0x00 (0001ms, 3526ms total)
T3918 005:410 JLINK_IsHalted()  returns TRUE (0000ms, 3526ms total)
T3918 005:415 JLINK_WriteMem(0x20000000, 0x0174 Bytes, ...) - Data: 00 BE 0A E0 0D 78 2D 06 68 40 08 24 40 00 00 D3 ... -- CPU_WriteMem(372 bytes @ 0x20000000)  returns 0x174 (0006ms, 3532ms total)
T3918 005:421 JLINK_WriteReg(R0, 0x00000000)  returns 0x00 (0000ms, 3532ms total)
T3918 005:421 JLINK_WriteReg(R1, 0x00B71B00)  returns 0x00 (0000ms, 3532ms total)
T3918 005:421 JLINK_WriteReg(R2, 0x00000002)  returns 0x00 (0000ms, 3532ms total)
T3918 005:421 JLINK_WriteReg(R3, 0x00000000)  returns 0x00 (0000ms, 3532ms total)
T3918 005:421 JLINK_WriteReg(R4, 0x00000000)  returns 0x00 (0000ms, 3532ms total)
T3918 005:421 JLINK_WriteReg(R5, 0x00000000)  returns 0x00 (0000ms, 3532ms total)
T3918 005:421 JLINK_WriteReg(R6, 0x00000000)  returns 0x00 (0000ms, 3532ms total)
T3918 005:421 JLINK_WriteReg(R7, 0x00000000)  returns 0x00 (0000ms, 3532ms total)
T3918 005:421 JLINK_WriteReg(R8, 0x00000000)  returns 0x00 (0000ms, 3532ms total)
T3918 005:421 JLINK_WriteReg(R9, 0x20000170)  returns 0x00 (0000ms, 3532ms total)
T3918 005:421 JLINK_WriteReg(R10, 0x00000000)  returns 0x00 (0000ms, 3532ms total)
T3918 005:421 JLINK_WriteReg(R11, 0x00000000)  returns 0x00 (0000ms, 3532ms total)
T3918 005:421 JLINK_WriteReg(R12, 0x00000000)  returns 0x00 (0000ms, 3532ms total)
T3918 005:421 JLINK_WriteReg(R13 (SP), 0x20001000)  returns 0x00 (0000ms, 3532ms total)
T3918 005:421 JLINK_WriteReg(R14, 0x20000001)  returns 0x00 (0000ms, 3532ms total)
T3918 005:421 JLINK_WriteReg(R15 (PC), 0x2000005E)  returns 0x00 (0000ms, 3532ms total)
T3918 005:421 JLINK_WriteReg(XPSR, 0x01000000)  returns 0x00 (0000ms, 3532ms total)
T3918 005:421 JLINK_WriteReg(MSP, 0x20001000)  returns 0x00 (0000ms, 3532ms total)
T3918 005:421 JLINK_WriteReg(PSP, 0x20001000)  returns 0x00 (0000ms, 3532ms total)
T3918 005:421 JLINK_WriteReg(CFBP, 0x00000000)  returns 0x00 (0000ms, 3532ms total)
T3918 005:421 JLINK_SetBPEx(Addr = 0x20000000, Type = 0xFFFFFFF2) -- CPU_ReadMem(4 bytes @ 0x20000000) -- CPU_WriteMem(4 bytes @ 0x20000000) -- CPU_ReadMem(4 bytes @ 0x20000000) -- CPU_WriteMem(4 bytes @ 0x20000000) -- CPU_ReadMem(2 bytes @ 0x20000000)  returns 0x00000001 (0004ms, 3536ms total)
T3918 005:425 JLINK_Go() -- CPU_WriteMem(2 bytes @ 0x20000000) -- CPU_ReadMem(4 bytes @ 0xE0001000) -- CPU_WriteMem(4 bytes @ 0xE0001000) -- CPU_WriteMem(4 bytes @ 0xE0002008) -- CPU_WriteMem(4 bytes @ 0xE000200C) -- CPU_WriteMem(4 bytes @ 0xE0002010) -- CPU_WriteMem(4 bytes @ 0xE0002014) -- CPU_WriteMem(4 bytes @ 0xE0001004) (0008ms, 3544ms total)
T3918 005:433 JLINK_IsHalted() -- CPU_ReadMem(2 bytes @ 0x20000000)  returns TRUE (0007ms, 3551ms total)
T3918 005:440 JLINK_ReadReg(R15 (PC))  returns 0x20000000 (0000ms, 3544ms total)
T3918 005:440 JLINK_ClrBPEx(BPHandle = 0x00000001)  returns 0x00 (0000ms, 3544ms total)
T3918 005:440 JLINK_ReadReg(R0)  returns 0x00000000 (0000ms, 3544ms total)
T3918 005:442 JLINK_WriteMem(0x20000174, 0x028C Bytes, ...) - Data: 00 5E 00 20 D5 00 00 00 89 AA 00 00 05 7B 00 00 ... -- CPU_WriteMem(652 bytes @ 0x20000174)  returns 0x28C (0011ms, 3555ms total)
T3918 005:453 JLINK_WriteMem(0x20000400, 0x0174 Bytes, ...) - Data: 20 2A 04 DB 08 46 20 3A D0 40 00 21 10 BD 0B 46 ... -- CPU_WriteMem(372 bytes @ 0x20000400)  returns 0x174 (0006ms, 3561ms total)
T3918 005:459 JLINK_WriteReg(R0, 0x00000000)  returns 0x00 (0000ms, 3561ms total)
T3918 005:459 JLINK_WriteReg(R1, 0x00000400)  returns 0x00 (0000ms, 3561ms total)
T3918 005:459 JLINK_WriteReg(R2, 0x20000174)  returns 0x00 (0000ms, 3561ms total)
T3918 005:459 JLINK_WriteReg(R3, 0x00000000)  returns 0x00 (0000ms, 3561ms total)
T3918 005:459 JLINK_WriteReg(R4, 0x00000000)  returns 0x00 (0000ms, 3561ms total)
T3918 005:459 JLINK_WriteReg(R5, 0x00000000)  returns 0x00 (0000ms, 3561ms total)
T3918 005:459 JLINK_WriteReg(R6, 0x00000000)  returns 0x00 (0000ms, 3561ms total)
T3918 005:459 JLINK_WriteReg(R7, 0x00000000)  returns 0x00 (0000ms, 3561ms total)
T3918 005:459 JLINK_WriteReg(R8, 0x00000000)  returns 0x00 (0000ms, 3561ms total)
T3918 005:459 JLINK_WriteReg(R9, 0x20000170)  returns 0x00 (0000ms, 3561ms total)
T3918 005:459 JLINK_WriteReg(R10, 0x00000000)  returns 0x00 (0000ms, 3561ms total)
T3918 005:459 JLINK_WriteReg(R11, 0x00000000)  returns 0x00 (0001ms, 3562ms total)
T3918 005:460 JLINK_WriteReg(R12, 0x00000000)  returns 0x00 (0000ms, 3562ms total)
T3918 005:460 JLINK_WriteReg(R13 (SP), 0x20001000)  returns 0x00 (0000ms, 3562ms total)
T3918 005:460 JLINK_WriteReg(R14, 0x20000001)  returns 0x00 (0000ms, 3562ms total)
T3918 005:460 JLINK_WriteReg(R15 (PC), 0x200000F6)  returns 0x00 (0000ms, 3562ms total)
T3918 005:460 JLINK_WriteReg(XPSR, 0x01000000)  returns 0x00 (0000ms, 3562ms total)
T3918 005:460 JLINK_WriteReg(MSP, 0x20001000)  returns 0x00 (0000ms, 3562ms total)
T3918 005:460 JLINK_WriteReg(PSP, 0x20001000)  returns 0x00 (0000ms, 3562ms total)
T3918 005:460 JLINK_WriteReg(CFBP, 0x00000000)  returns 0x00 (0000ms, 3562ms total)
T3918 005:460 JLINK_SetBPEx(Addr = 0x20000000, Type = 0xFFFFFFF2)  returns 0x00000002 (0000ms, 3562ms total)
T3918 005:460 JLINK_Go() -- CPU_ReadMem(4 bytes @ 0xE0001000) -- CPU_WriteMem(4 bytes @ 0xE0001000) (0004ms, 3566ms total)
T3918 005:464 JLINK_IsHalted()  returns FALSE (0001ms, 3567ms total)
T3918 005:486 JLINK_IsHalted()  returns FALSE (0000ms, 3566ms total)
T3918 005:489 JLINK_IsHalted() -- CPU_ReadMem(2 bytes @ 0x20000000)  returns TRUE (0007ms, 3573ms total)
T3918 005:496 JLINK_ReadReg(R15 (PC))  returns 0x20000000 (0000ms, 3566ms total)
T3918 005:496 JLINK_ClrBPEx(BPHandle = 0x00000002)  returns 0x00 (0000ms, 3566ms total)
T3918 005:496 JLINK_ReadReg(R0)  returns 0x00000000 (0000ms, 3566ms total)
T3918 005:496 JLINK_WriteMem(0x20000174, 0x028C Bytes, ...) - Data: C0 09 20 18 40 1C 40 08 80 2A 02 D0 03 E0 00 20 ... -- CPU_WriteMem(652 bytes @ 0x20000174)  returns 0x28C (0010ms, 3576ms total)
T3918 005:506 JLINK_WriteMem(0x20000400, 0x0174 Bytes, ...) - Data: 03 46 00 E0 03 23 9C 46 C1 1A 0A AE 0A E0 5F 00 ... -- CPU_WriteMem(372 bytes @ 0x20000400)  returns 0x174 (0006ms, 3582ms total)
T3918 005:512 JLINK_WriteReg(R0, 0x00000400)  returns 0x00 (0000ms, 3582ms total)
T3918 005:512 JLINK_WriteReg(R1, 0x00000400)  returns 0x00 (0000ms, 3582ms total)
T3918 005:512 JLINK_WriteReg(R2, 0x20000174)  returns 0x00 (0000ms, 3582ms total)
T3918 005:512 JLINK_WriteReg(R3, 0x00000000)  returns 0x00 (0000ms, 3582ms total)
T3918 005:512 JLINK_WriteReg(R4, 0x00000000)  returns 0x00 (0000ms, 3582ms total)
T3918 005:512 JLINK_WriteReg(R5, 0x00000000)  returns 0x00 (0000ms, 3582ms total)
T3918 005:512 JLINK_WriteReg(R6, 0x00000000)  returns 0x00 (0000ms, 3582ms total)
T3918 005:512 JLINK_WriteReg(R7, 0x00000000)  returns 0x00 (0000ms, 3582ms total)
T3918 005:512 JLINK_WriteReg(R8, 0x00000000)  returns 0x00 (0000ms, 3582ms total)
T3918 005:512 JLINK_WriteReg(R9, 0x20000170)  returns 0x00 (0000ms, 3582ms total)
T3918 005:512 JLINK_WriteReg(R10, 0x00000000)  returns 0x00 (0000ms, 3582ms total)
T3918 005:512 JLINK_WriteReg(R11, 0x00000000)  returns 0x00 (0000ms, 3582ms total)
T3918 005:512 JLINK_WriteReg(R12, 0x00000000)  returns 0x00 (0000ms, 3582ms total)
T3918 005:512 JLINK_WriteReg(R13 (SP), 0x20001000)  returns 0x00 (0000ms, 3582ms total)
T3918 005:512 JLINK_WriteReg(R14, 0x20000001)  returns 0x00 (0000ms, 3582ms total)
T3918 005:512 JLINK_WriteReg(R15 (PC), 0x200000F6)  returns 0x00 (0000ms, 3582ms total)
T3918 005:512 JLINK_WriteReg(XPSR, 0x01000000)  returns 0x00 (0000ms, 3582ms total)
T3918 005:512 JLINK_WriteReg(MSP, 0x20001000)  returns 0x00 (0000ms, 3582ms total)
T3918 005:512 JLINK_WriteReg(PSP, 0x20001000)  returns 0x00 (0000ms, 3582ms total)
T3918 005:512 JLINK_WriteReg(CFBP, 0x00000000)  returns 0x00 (0000ms, 3582ms total)
T3918 005:512 JLINK_SetBPEx(Addr = 0x20000000, Type = 0xFFFFFFF2)  returns 0x00000003 (0000ms, 3582ms total)
T3918 005:512 JLINK_Go() -- CPU_ReadMem(4 bytes @ 0xE0001000) -- CPU_WriteMem(4 bytes @ 0xE0001000) (0005ms, 3587ms total)
T3918 005:517 JLINK_IsHalted()  returns FALSE (0001ms, 3588ms total)
T3918 005:533 JLINK_IsHalted()  returns FALSE (0001ms, 3588ms total)
T3918 005:536 JLINK_IsHalted()  returns FALSE (0000ms, 3587ms total)
T3918 005:538 JLINK_IsHalted()  returns FALSE (0000ms, 3587ms total)
T3918 005:540 JLINK_IsHalted()  returns FALSE (0001ms, 3588ms total)
T3918 005:543 JLINK_IsHalted() -- CPU_ReadMem(2 bytes @ 0x20000000)  returns TRUE (0007ms, 3594ms total)
T3918 005:550 JLINK_ReadReg(R15 (PC))  returns 0x20000000 (0000ms, 3587ms total)
T3918 005:550 JLINK_ClrBPEx(BPHandle = 0x00000003)  returns 0x00 (0000ms, 3587ms total)
T3918 005:550 JLINK_ReadReg(R0)  returns 0x00000000 (0000ms, 3587ms total)
T3918 005:552 JLINK_WriteMem(0x20000174, 0x028C Bytes, ...) - Data: 51 41 70 BD C2 17 C1 0F 50 40 10 B5 40 18 CA 07 ... -- CPU_WriteMem(652 bytes @ 0x20000174)  returns 0x28C (0010ms, 3597ms total)
T3918 005:562 JLINK_WriteMem(0x20000400, 0x0174 Bytes, ...) - Data: 28 F8 10 BD 01 22 D2 07 00 28 00 DB 10 1A 00 29 ... -- CPU_WriteMem(372 bytes @ 0x20000400)  returns 0x174 (0005ms, 3602ms total)
T3918 005:567 JLINK_WriteReg(R0, 0x00000800)  returns 0x00 (0000ms, 3602ms total)
T3918 005:567 JLINK_WriteReg(R1, 0x00000400)  returns 0x00 (0000ms, 3602ms total)
T3918 005:567 JLINK_WriteReg(R2, 0x20000174)  returns 0x00 (0000ms, 3602ms total)
T3918 005:567 JLINK_WriteReg(R3, 0x00000000)  returns 0x00 (0000ms, 3602ms total)
T3918 005:567 JLINK_WriteReg(R4, 0x00000000)  returns 0x00 (0000ms, 3602ms total)
T3918 005:567 JLINK_WriteReg(R5, 0x00000000)  returns 0x00 (0000ms, 3602ms total)
T3918 005:567 JLINK_WriteReg(R6, 0x00000000)  returns 0x00 (0000ms, 3602ms total)
T3918 005:567 JLINK_WriteReg(R7, 0x00000000)  returns 0x00 (0000ms, 3602ms total)
T3918 005:567 JLINK_WriteReg(R8, 0x00000000)  returns 0x00 (0000ms, 3602ms total)
T3918 005:567 JLINK_WriteReg(R9, 0x20000170)  returns 0x00 (0000ms, 3602ms total)
T3918 005:567 JLINK_WriteReg(R10, 0x00000000)  returns 0x00 (0000ms, 3602ms total)
T3918 005:567 JLINK_WriteReg(R11, 0x00000000)  returns 0x00 (0000ms, 3602ms total)
T3918 005:567 JLINK_WriteReg(R12, 0x00000000)  returns 0x00 (0000ms, 3602ms total)
T3918 005:567 JLINK_WriteReg(R13 (SP), 0x20001000)  returns 0x00 (0000ms, 3602ms total)
T3918 005:567 JLINK_WriteReg(R14, 0x20000001)  returns 0x00 (0000ms, 3602ms total)
T3918 005:567 JLINK_WriteReg(R15 (PC), 0x200000F6)  returns 0x00 (0000ms, 3602ms total)
T3918 005:567 JLINK_WriteReg(XPSR, 0x01000000)  returns 0x00 (0000ms, 3602ms total)
T3918 005:567 JLINK_WriteReg(MSP, 0x20001000)  returns 0x00 (0000ms, 3602ms total)
T3918 005:567 JLINK_WriteReg(PSP, 0x20001000)  returns 0x00 (0000ms, 3602ms total)
T3918 005:567 JLINK_WriteReg(CFBP, 0x00000000)  returns 0x00 (0000ms, 3602ms total)
T3918 005:567 JLINK_SetBPEx(Addr = 0x20000000, Type = 0xFFFFFFF2)  returns 0x00000004 (0000ms, 3602ms total)
T3918 005:567 JLINK_Go() -- CPU_ReadMem(4 bytes @ 0xE0001000) -- CPU_WriteMem(4 bytes @ 0xE0001000) (0005ms, 3607ms total)
T3918 005:572 JLINK_IsHalted()  returns FALSE (0001ms, 3608ms total)
T3918 005:575 JLINK_IsHalted()  returns FALSE (0001ms, 3608ms total)
T3918 005:577 JLINK_IsHalted()  returns FALSE (0000ms, 3607ms total)
T3918 005:580 JLINK_IsHalted()  returns FALSE (0000ms, 3607ms total)
T3918 005:592 JLINK_IsHalted()  returns FALSE (0000ms, 3607ms total)
T3918 005:594 JLINK_IsHalted()  returns FALSE (0000ms, 3607ms total)
T3918 005:595 JLINK_IsHalted()  returns FALSE (0000ms, 3607ms total)
T3918 005:601 JLINK_IsHalted() -- CPU_ReadMem(2 bytes @ 0x20000000)  returns TRUE (0007ms, 3614ms total)
T3918 005:608 JLINK_ReadReg(R15 (PC))  returns 0x20000000 (0000ms, 3607ms total)
T3918 005:608 JLINK_ClrBPEx(BPHandle = 0x00000004)  returns 0x00 (0000ms, 3607ms total)
T3918 005:608 JLINK_ReadReg(R0)  returns 0x00000000 (0000ms, 3607ms total)
T3918 005:608 JLINK_WriteMem(0x20000174, 0x028C Bytes, ...) - Data: 0A 30 02 D5 00 20 01 46 E9 E7 01 05 10 19 69 41 ... -- CPU_WriteMem(652 bytes @ 0x20000174)  returns 0x28C (0010ms, 3617ms total)
T3918 005:618 JLINK_WriteMem(0x20000400, 0x0174 Bytes, ...) - Data: 01 D2 BC 20 00 E0 A6 20 FF F7 A6 FF 69 46 80 20 ... -- CPU_WriteMem(372 bytes @ 0x20000400)  returns 0x174 (0007ms, 3624ms total)
T3918 005:625 JLINK_WriteReg(R0, 0x00000C00)  returns 0x00 (0001ms, 3625ms total)
T3918 005:626 JLINK_WriteReg(R1, 0x00000400)  returns 0x00 (0000ms, 3625ms total)
T3918 005:626 JLINK_WriteReg(R2, 0x20000174)  returns 0x00 (0000ms, 3625ms total)
T3918 005:626 JLINK_WriteReg(R3, 0x00000000)  returns 0x00 (0000ms, 3625ms total)
T3918 005:626 JLINK_WriteReg(R4, 0x00000000)  returns 0x00 (0000ms, 3625ms total)
T3918 005:626 JLINK_WriteReg(R5, 0x00000000)  returns 0x00 (0000ms, 3625ms total)
T3918 005:626 JLINK_WriteReg(R6, 0x00000000)  returns 0x00 (0000ms, 3625ms total)
T3918 005:626 JLINK_WriteReg(R7, 0x00000000)  returns 0x00 (0000ms, 3625ms total)
T3918 005:626 JLINK_WriteReg(R8, 0x00000000)  returns 0x00 (0000ms, 3625ms total)
T3918 005:626 JLINK_WriteReg(R9, 0x20000170)  returns 0x00 (0000ms, 3625ms total)
T3918 005:626 JLINK_WriteReg(R10, 0x00000000)  returns 0x00 (0001ms, 3626ms total)
T3918 005:627 JLINK_WriteReg(R11, 0x00000000)  returns 0x00 (0000ms, 3626ms total)
T3918 005:627 JLINK_WriteReg(R12, 0x00000000)  returns 0x00 (0000ms, 3626ms total)
T3918 005:627 JLINK_WriteReg(R13 (SP), 0x20001000)  returns 0x00 (0000ms, 3626ms total)
T3918 005:627 JLINK_WriteReg(R14, 0x20000001)  returns 0x00 (0000ms, 3626ms total)
T3918 005:627 JLINK_WriteReg(R15 (PC), 0x200000F6)  returns 0x00 (0000ms, 3626ms total)
T3918 005:627 JLINK_WriteReg(XPSR, 0x01000000)  returns 0x00 (0000ms, 3626ms total)
T3918 005:627 JLINK_WriteReg(MSP, 0x20001000)  returns 0x00 (0000ms, 3626ms total)
T3918 005:627 JLINK_WriteReg(PSP, 0x20001000)  returns 0x00 (0000ms, 3626ms total)
T3918 005:627 JLINK_WriteReg(CFBP, 0x00000000)  returns 0x00 (0000ms, 3626ms total)
T3918 005:627 JLINK_SetBPEx(Addr = 0x20000000, Type = 0xFFFFFFF2)  returns 0x00000005 (0000ms, 3626ms total)
T3918 005:627 JLINK_Go() -- CPU_ReadMem(4 bytes @ 0xE0001000) -- CPU_WriteMem(4 bytes @ 0xE0001000) (0004ms, 3630ms total)
T3918 005:631 JLINK_IsHalted()  returns FALSE (0002ms, 3632ms total)
T3918 005:641 JLINK_IsHalted()  returns FALSE (0000ms, 3630ms total)
T3918 005:643 JLINK_IsHalted()  returns FALSE (0001ms, 3631ms total)
T3918 005:646 JLINK_IsHalted()  returns FALSE (0000ms, 3630ms total)
T3918 005:648 JLINK_IsHalted()  returns FALSE (0001ms, 3631ms total)
T3918 005:650 JLINK_IsHalted()  returns FALSE (0001ms, 3631ms total)
T3918 005:653 JLINK_IsHalted()  returns FALSE (0001ms, 3631ms total)
T3918 005:655 JLINK_IsHalted()  returns FALSE (0001ms, 3631ms total)
T3918 005:658 JLINK_IsHalted() -- CPU_ReadMem(2 bytes @ 0x20000000)  returns TRUE (0007ms, 3637ms total)
T3918 005:665 JLINK_ReadReg(R15 (PC))  returns 0x20000000 (0000ms, 3630ms total)
T3918 005:665 JLINK_ClrBPEx(BPHandle = 0x00000005)  returns 0x00 (0000ms, 3630ms total)
T3918 005:665 JLINK_ReadReg(R0)  returns 0x00000000 (0000ms, 3630ms total)
T3918 005:666 JLINK_WriteMem(0x20000174, 0x028C Bytes, ...) - Data: F0 B5 F8 48 91 B0 41 78 F7 48 0F 90 20 29 7D D1 ... -- CPU_WriteMem(652 bytes @ 0x20000174)  returns 0x28C (0010ms, 3640ms total)
T3918 005:676 JLINK_WriteMem(0x20000400, 0x0174 Bytes, ...) - Data: A8 76 15 E0 58 49 09 7A AA 29 01 D0 55 29 73 D1 ... -- CPU_WriteMem(372 bytes @ 0x20000400)  returns 0x174 (0007ms, 3647ms total)
T3918 005:683 JLINK_WriteReg(R0, 0x00001000)  returns 0x00 (0000ms, 3647ms total)
T3918 005:683 JLINK_WriteReg(R1, 0x00000400)  returns 0x00 (0000ms, 3647ms total)
T3918 005:683 JLINK_WriteReg(R2, 0x20000174)  returns 0x00 (0000ms, 3647ms total)
T3918 005:683 JLINK_WriteReg(R3, 0x00000000)  returns 0x00 (0000ms, 3647ms total)
T3918 005:683 JLINK_WriteReg(R4, 0x00000000)  returns 0x00 (0000ms, 3647ms total)
T3918 005:683 JLINK_WriteReg(R5, 0x00000000)  returns 0x00 (0000ms, 3647ms total)
T3918 005:683 JLINK_WriteReg(R6, 0x00000000)  returns 0x00 (0000ms, 3647ms total)
T3918 005:683 JLINK_WriteReg(R7, 0x00000000)  returns 0x00 (0000ms, 3647ms total)
T3918 005:683 JLINK_WriteReg(R8, 0x00000000)  returns 0x00 (0000ms, 3647ms total)
T3918 005:683 JLINK_WriteReg(R9, 0x20000170)  returns 0x00 (0000ms, 3647ms total)
T3918 005:683 JLINK_WriteReg(R10, 0x00000000)  returns 0x00 (0000ms, 3647ms total)
T3918 005:683 JLINK_WriteReg(R11, 0x00000000)  returns 0x00 (0000ms, 3647ms total)
T3918 005:683 JLINK_WriteReg(R12, 0x00000000)  returns 0x00 (0000ms, 3647ms total)
T3918 005:683 JLINK_WriteReg(R13 (SP), 0x20001000)  returns 0x00 (0000ms, 3647ms total)
T3918 005:683 JLINK_WriteReg(R14, 0x20000001)  returns 0x00 (0000ms, 3647ms total)
T3918 005:683 JLINK_WriteReg(R15 (PC), 0x200000F6)  returns 0x00 (0000ms, 3647ms total)
T3918 005:683 JLINK_WriteReg(XPSR, 0x01000000)  returns 0x00 (0000ms, 3647ms total)
T3918 005:683 JLINK_WriteReg(MSP, 0x20001000)  returns 0x00 (0000ms, 3647ms total)
T3918 005:683 JLINK_WriteReg(PSP, 0x20001000)  returns 0x00 (0000ms, 3647ms total)
T3918 005:683 JLINK_WriteReg(CFBP, 0x00000000)  returns 0x00 (0000ms, 3647ms total)
T3918 005:683 JLINK_SetBPEx(Addr = 0x20000000, Type = 0xFFFFFFF2)  returns 0x00000006 (0000ms, 3647ms total)
T3918 005:683 JLINK_Go() -- CPU_ReadMem(4 bytes @ 0xE0001000) -- CPU_WriteMem(4 bytes @ 0xE0001000) (0005ms, 3652ms total)
T3918 005:688 JLINK_IsHalted()  returns FALSE (0000ms, 3652ms total)
T3918 005:699 JLINK_IsHalted()  returns FALSE (0001ms, 3653ms total)
T3918 005:701 JLINK_IsHalted()  returns FALSE (0001ms, 3653ms total)
T3918 005:709 JLINK_IsHalted()  returns FALSE (0000ms, 3652ms total)
T3918 005:711 JLINK_IsHalted()  returns FALSE (0001ms, 3653ms total)
T3918 005:713 JLINK_IsHalted() -- CPU_ReadMem(2 bytes @ 0x20000000)  returns TRUE (0007ms, 3659ms total)
T3918 005:720 JLINK_ReadReg(R15 (PC))  returns 0x20000000 (0000ms, 3652ms total)
T3918 005:720 JLINK_ClrBPEx(BPHandle = 0x00000006)  returns 0x00 (0000ms, 3652ms total)
T3918 005:720 JLINK_ReadReg(R0)  returns 0x00000000 (0000ms, 3652ms total)
T3918 005:721 JLINK_WriteMem(0x20000174, 0x028C Bytes, ...) - Data: 34 F9 03 00 00 00 C8 41 00 C0 B7 44 14 02 00 20 ... -- CPU_WriteMem(652 bytes @ 0x20000174)  returns 0x28C (0010ms, 3662ms total)
T3918 005:731 JLINK_WriteMem(0x20000400, 0x0174 Bytes, ...) - Data: 80 48 00 68 FF F7 BA F9 06 46 0F 46 0D 98 FF F7 ... -- CPU_WriteMem(372 bytes @ 0x20000400)  returns 0x174 (0007ms, 3669ms total)
T3918 005:738 JLINK_WriteReg(R0, 0x00001400)  returns 0x00 (0000ms, 3669ms total)
T3918 005:738 JLINK_WriteReg(R1, 0x00000400)  returns 0x00 (0000ms, 3669ms total)
T3918 005:738 JLINK_WriteReg(R2, 0x20000174)  returns 0x00 (0000ms, 3669ms total)
T3918 005:738 JLINK_WriteReg(R3, 0x00000000)  returns 0x00 (0000ms, 3669ms total)
T3918 005:738 JLINK_WriteReg(R4, 0x00000000)  returns 0x00 (0000ms, 3669ms total)
T3918 005:738 JLINK_WriteReg(R5, 0x00000000)  returns 0x00 (0000ms, 3669ms total)
T3918 005:738 JLINK_WriteReg(R6, 0x00000000)  returns 0x00 (0000ms, 3669ms total)
T3918 005:738 JLINK_WriteReg(R7, 0x00000000)  returns 0x00 (0000ms, 3669ms total)
T3918 005:738 JLINK_WriteReg(R8, 0x00000000)  returns 0x00 (0000ms, 3669ms total)
T3918 005:738 JLINK_WriteReg(R9, 0x20000170)  returns 0x00 (0000ms, 3669ms total)
T3918 005:738 JLINK_WriteReg(R10, 0x00000000)  returns 0x00 (0000ms, 3669ms total)
T3918 005:738 JLINK_WriteReg(R11, 0x00000000)  returns 0x00 (0000ms, 3669ms total)
T3918 005:738 JLINK_WriteReg(R12, 0x00000000)  returns 0x00 (0000ms, 3669ms total)
T3918 005:738 JLINK_WriteReg(R13 (SP), 0x20001000)  returns 0x00 (0000ms, 3669ms total)
T3918 005:738 JLINK_WriteReg(R14, 0x20000001)  returns 0x00 (0000ms, 3669ms total)
T3918 005:738 JLINK_WriteReg(R15 (PC), 0x200000F6)  returns 0x00 (0000ms, 3669ms total)
T3918 005:738 JLINK_WriteReg(XPSR, 0x01000000)  returns 0x00 (0000ms, 3669ms total)
T3918 005:738 JLINK_WriteReg(MSP, 0x20001000)  returns 0x00 (0000ms, 3669ms total)
T3918 005:738 JLINK_WriteReg(PSP, 0x20001000)  returns 0x00 (0000ms, 3669ms total)
T3918 005:738 JLINK_WriteReg(CFBP, 0x00000000)  returns 0x00 (0000ms, 3669ms total)
T3918 005:738 JLINK_SetBPEx(Addr = 0x20000000, Type = 0xFFFFFFF2)  returns 0x00000007 (0000ms, 3669ms total)
T3918 005:738 JLINK_Go() -- CPU_ReadMem(4 bytes @ 0xE0001000) -- CPU_WriteMem(4 bytes @ 0xE0001000) (0005ms, 3674ms total)
T3918 005:743 JLINK_IsHalted()  returns FALSE (0001ms, 3675ms total)
T3918 005:745 JLINK_IsHalted()  returns FALSE (0001ms, 3675ms total)
T3918 005:747 JLINK_IsHalted()  returns FALSE (0001ms, 3675ms total)
T3918 005:758 JLINK_IsHalted()  returns FALSE (0001ms, 3675ms total)
T3918 005:760 JLINK_IsHalted()  returns FALSE (0001ms, 3675ms total)
T3918 005:762 JLINK_IsHalted()  returns FALSE (0001ms, 3675ms total)
T3918 005:765 JLINK_IsHalted()  returns FALSE (0000ms, 3674ms total)
T3918 005:770 JLINK_IsHalted() -- CPU_ReadMem(2 bytes @ 0x20000000)  returns TRUE (0007ms, 3681ms total)
T3918 005:777 JLINK_ReadReg(R15 (PC))  returns 0x20000000 (0000ms, 3674ms total)
T3918 005:777 JLINK_ClrBPEx(BPHandle = 0x00000007)  returns 0x00 (0000ms, 3674ms total)
T3918 005:777 JLINK_ReadReg(R0)  returns 0x00000000 (0000ms, 3674ms total)
T3918 005:777 JLINK_WriteMem(0x20000174, 0x028C Bytes, ...) - Data: FE F7 58 FE 01 22 FE F7 E7 FF 01 9B 00 9A 13 E0 ... -- CPU_WriteMem(652 bytes @ 0x20000174)  returns 0x28C (0011ms, 3685ms total)
T3918 005:788 JLINK_WriteMem(0x20000400, 0x0174 Bytes, ...) - Data: 68 46 C0 79 01 19 68 46 C1 71 2D E0 00 2C 0E D0 ... -- CPU_WriteMem(372 bytes @ 0x20000400)  returns 0x174 (0006ms, 3691ms total)
T3918 005:794 JLINK_WriteReg(R0, 0x00001800)  returns 0x00 (0000ms, 3691ms total)
T3918 005:794 JLINK_WriteReg(R1, 0x00000400)  returns 0x00 (0000ms, 3691ms total)
T3918 005:794 JLINK_WriteReg(R2, 0x20000174)  returns 0x00 (0000ms, 3691ms total)
T3918 005:794 JLINK_WriteReg(R3, 0x00000000)  returns 0x00 (0000ms, 3691ms total)
T3918 005:794 JLINK_WriteReg(R4, 0x00000000)  returns 0x00 (0000ms, 3691ms total)
T3918 005:794 JLINK_WriteReg(R5, 0x00000000)  returns 0x00 (0000ms, 3691ms total)
T3918 005:794 JLINK_WriteReg(R6, 0x00000000)  returns 0x00 (0000ms, 3691ms total)
T3918 005:794 JLINK_WriteReg(R7, 0x00000000)  returns 0x00 (0000ms, 3691ms total)
T3918 005:794 JLINK_WriteReg(R8, 0x00000000)  returns 0x00 (0000ms, 3691ms total)
T3918 005:794 JLINK_WriteReg(R9, 0x20000170)  returns 0x00 (0000ms, 3691ms total)
T3918 005:794 JLINK_WriteReg(R10, 0x00000000)  returns 0x00 (0000ms, 3691ms total)
T3918 005:794 JLINK_WriteReg(R11, 0x00000000)  returns 0x00 (0000ms, 3691ms total)
T3918 005:794 JLINK_WriteReg(R12, 0x00000000)  returns 0x00 (0000ms, 3691ms total)
T3918 005:794 JLINK_WriteReg(R13 (SP), 0x20001000)  returns 0x00 (0000ms, 3691ms total)
T3918 005:794 JLINK_WriteReg(R14, 0x20000001)  returns 0x00 (0000ms, 3691ms total)
T3918 005:794 JLINK_WriteReg(R15 (PC), 0x200000F6)  returns 0x00 (0000ms, 3691ms total)
T3918 005:794 JLINK_WriteReg(XPSR, 0x01000000)  returns 0x00 (0000ms, 3691ms total)
T3918 005:794 JLINK_WriteReg(MSP, 0x20001000)  returns 0x00 (0000ms, 3691ms total)
T3918 005:794 JLINK_WriteReg(PSP, 0x20001000)  returns 0x00 (0000ms, 3691ms total)
T3918 005:794 JLINK_WriteReg(CFBP, 0x00000000)  returns 0x00 (0000ms, 3691ms total)
T3918 005:794 JLINK_SetBPEx(Addr = 0x20000000, Type = 0xFFFFFFF2)  returns 0x00000008 (0000ms, 3691ms total)
T3918 005:794 JLINK_Go() -- CPU_ReadMem(4 bytes @ 0xE0001000) -- CPU_WriteMem(4 bytes @ 0xE0001000) (0004ms, 3695ms total)
T3918 005:798 JLINK_IsHalted()  returns FALSE (0001ms, 3696ms total)
T3918 005:801 JLINK_IsHalted()  returns FALSE (0001ms, 3696ms total)
T3918 005:803 JLINK_IsHalted()  returns FALSE (0000ms, 3695ms total)
T3918 005:805 JLINK_IsHalted()  returns FALSE (0001ms, 3696ms total)
T3918 005:807 JLINK_IsHalted()  returns FALSE (0001ms, 3696ms total)
T3918 005:809 JLINK_IsHalted()  returns FALSE (0000ms, 3695ms total)
T3918 005:821 JLINK_IsHalted()  returns FALSE (0001ms, 3696ms total)
T3918 005:823 JLINK_IsHalted() -- CPU_ReadMem(2 bytes @ 0x20000000)  returns TRUE (0006ms, 3701ms total)
T3918 005:829 JLINK_ReadReg(R15 (PC))  returns 0x20000000 (0000ms, 3695ms total)
T3918 005:829 JLINK_ClrBPEx(BPHandle = 0x00000008)  returns 0x00 (0000ms, 3695ms total)
T3918 005:829 JLINK_ReadReg(R0)  returns 0x00000000 (0000ms, 3695ms total)
T3918 005:830 JLINK_WriteMem(0x20000174, 0x028C Bytes, ...) - Data: E2 07 01 20 00 2A 6A 46 05 D0 50 71 A2 07 04 D4 ... -- CPU_WriteMem(652 bytes @ 0x20000174)  returns 0x28C (0010ms, 3705ms total)
T3918 005:840 JLINK_WriteMem(0x20000400, 0x0174 Bytes, ...) - Data: F7 B5 92 B0 17 46 40 22 1C 49 68 46 FE F7 08 FA ... -- CPU_WriteMem(372 bytes @ 0x20000400)  returns 0x174 (0007ms, 3712ms total)
T3918 005:847 JLINK_WriteReg(R0, 0x00001C00)  returns 0x00 (0000ms, 3712ms total)
T3918 005:847 JLINK_WriteReg(R1, 0x00000400)  returns 0x00 (0000ms, 3712ms total)
T3918 005:847 JLINK_WriteReg(R2, 0x20000174)  returns 0x00 (0000ms, 3712ms total)
T3918 005:847 JLINK_WriteReg(R3, 0x00000000)  returns 0x00 (0000ms, 3712ms total)
T3918 005:847 JLINK_WriteReg(R4, 0x00000000)  returns 0x00 (0000ms, 3712ms total)
T3918 005:847 JLINK_WriteReg(R5, 0x00000000)  returns 0x00 (0000ms, 3712ms total)
T3918 005:847 JLINK_WriteReg(R6, 0x00000000)  returns 0x00 (0000ms, 3712ms total)
T3918 005:847 JLINK_WriteReg(R7, 0x00000000)  returns 0x00 (0000ms, 3712ms total)
T3918 005:847 JLINK_WriteReg(R8, 0x00000000)  returns 0x00 (0000ms, 3712ms total)
T3918 005:847 JLINK_WriteReg(R9, 0x20000170)  returns 0x00 (0001ms, 3713ms total)
T3918 005:848 JLINK_WriteReg(R10, 0x00000000)  returns 0x00 (0000ms, 3713ms total)
T3918 005:848 JLINK_WriteReg(R11, 0x00000000)  returns 0x00 (0000ms, 3713ms total)
T3918 005:848 JLINK_WriteReg(R12, 0x00000000)  returns 0x00 (0000ms, 3713ms total)
T3918 005:848 JLINK_WriteReg(R13 (SP), 0x20001000)  returns 0x00 (0000ms, 3713ms total)
T3918 005:848 JLINK_WriteReg(R14, 0x20000001)  returns 0x00 (0000ms, 3713ms total)
T3918 005:848 JLINK_WriteReg(R15 (PC), 0x200000F6)  returns 0x00 (0000ms, 3713ms total)
T3918 005:848 JLINK_WriteReg(XPSR, 0x01000000)  returns 0x00 (0000ms, 3713ms total)
T3918 005:848 JLINK_WriteReg(MSP, 0x20001000)  returns 0x00 (0000ms, 3713ms total)
T3918 005:848 JLINK_WriteReg(PSP, 0x20001000)  returns 0x00 (0000ms, 3713ms total)
T3918 005:848 JLINK_WriteReg(CFBP, 0x00000000)  returns 0x00 (0000ms, 3713ms total)
T3918 005:848 JLINK_SetBPEx(Addr = 0x20000000, Type = 0xFFFFFFF2)  returns 0x00000009 (0000ms, 3713ms total)
T3918 005:849 JLINK_Go() -- CPU_ReadMem(4 bytes @ 0xE0001000) -- CPU_WriteMem(4 bytes @ 0xE0001000) (0004ms, 3717ms total)
T3918 005:853 JLINK_IsHalted()  returns FALSE (0002ms, 3719ms total)
T3918 005:880 JLINK_IsHalted() -- CPU_ReadMem(2 bytes @ 0x20000000)  returns TRUE (0007ms, 3724ms total)
T3918 005:887 JLINK_ReadReg(R15 (PC))  returns 0x20000000 (0000ms, 3717ms total)
T3918 005:887 JLINK_ClrBPEx(BPHandle = 0x00000009)  returns 0x00 (0000ms, 3717ms total)
T3918 005:887 JLINK_ReadReg(R0)  returns 0x00000000 (0000ms, 3717ms total)
T3918 005:888 JLINK_WriteMem(0x20000174, 0x028C Bytes, ...) - Data: 29 19 88 72 16 20 C8 72 30 BD 00 00 9A 08 00 20 ... -- CPU_WriteMem(652 bytes @ 0x20000174)  returns 0x28C (0011ms, 3728ms total)
T3918 005:899 JLINK_WriteMem(0x20000400, 0x0174 Bytes, ...) - Data: 00 25 69 00 30 46 C8 40 84 07 A4 0F 01 2C 01 D0 ... -- CPU_WriteMem(372 bytes @ 0x20000400)  returns 0x174 (0006ms, 3734ms total)
T3918 005:905 JLINK_WriteReg(R0, 0x00002000)  returns 0x00 (0000ms, 3734ms total)
T3918 005:905 JLINK_WriteReg(R1, 0x00000400)  returns 0x00 (0000ms, 3734ms total)
T3918 005:905 JLINK_WriteReg(R2, 0x20000174)  returns 0x00 (0000ms, 3734ms total)
T3918 005:905 JLINK_WriteReg(R3, 0x00000000)  returns 0x00 (0000ms, 3734ms total)
T3918 005:905 JLINK_WriteReg(R4, 0x00000000)  returns 0x00 (0000ms, 3734ms total)
T3918 005:905 JLINK_WriteReg(R5, 0x00000000)  returns 0x00 (0000ms, 3734ms total)
T3918 005:905 JLINK_WriteReg(R6, 0x00000000)  returns 0x00 (0001ms, 3735ms total)
T3918 005:906 JLINK_WriteReg(R7, 0x00000000)  returns 0x00 (0000ms, 3735ms total)
T3918 005:906 JLINK_WriteReg(R8, 0x00000000)  returns 0x00 (0000ms, 3735ms total)
T3918 005:906 JLINK_WriteReg(R9, 0x20000170)  returns 0x00 (0000ms, 3735ms total)
T3918 005:906 JLINK_WriteReg(R10, 0x00000000)  returns 0x00 (0000ms, 3735ms total)
T3918 005:906 JLINK_WriteReg(R11, 0x00000000)  returns 0x00 (0000ms, 3735ms total)
T3918 005:906 JLINK_WriteReg(R12, 0x00000000)  returns 0x00 (0000ms, 3735ms total)
T3918 005:906 JLINK_WriteReg(R13 (SP), 0x20001000)  returns 0x00 (0000ms, 3735ms total)
T3918 005:906 JLINK_WriteReg(R14, 0x20000001)  returns 0x00 (0000ms, 3735ms total)
T3918 005:906 JLINK_WriteReg(R15 (PC), 0x200000F6)  returns 0x00 (0000ms, 3735ms total)
T3918 005:906 JLINK_WriteReg(XPSR, 0x01000000)  returns 0x00 (0000ms, 3735ms total)
T3918 005:906 JLINK_WriteReg(MSP, 0x20001000)  returns 0x00 (0000ms, 3735ms total)
T3918 005:906 JLINK_WriteReg(PSP, 0x20001000)  returns 0x00 (0000ms, 3735ms total)
T3918 005:906 JLINK_WriteReg(CFBP, 0x00000000)  returns 0x00 (0000ms, 3735ms total)
T3918 005:906 JLINK_SetBPEx(Addr = 0x20000000, Type = 0xFFFFFFF2)  returns 0x0000000A (0000ms, 3735ms total)
T3918 005:906 JLINK_Go() -- CPU_ReadMem(4 bytes @ 0xE0001000) -- CPU_WriteMem(4 bytes @ 0xE0001000) (0005ms, 3740ms total)
T3918 005:911 JLINK_IsHalted()  returns FALSE (0000ms, 3740ms total)
T3918 005:913 JLINK_IsHalted()  returns FALSE (0001ms, 3741ms total)
T3918 005:916 JLINK_IsHalted()  returns FALSE (0001ms, 3741ms total)
T3918 005:928 JLINK_IsHalted()  returns FALSE (0000ms, 3740ms total)
T3918 005:930 JLINK_IsHalted()  returns FALSE (0000ms, 3740ms total)
T3918 005:932 JLINK_IsHalted()  returns FALSE (0000ms, 3740ms total)
T3918 005:937 JLINK_IsHalted() -- CPU_ReadMem(2 bytes @ 0x20000000)  returns TRUE (0008ms, 3748ms total)
T3918 005:945 JLINK_ReadReg(R15 (PC))  returns 0x20000000 (0000ms, 3740ms total)
T3918 005:945 JLINK_ClrBPEx(BPHandle = 0x0000000A)  returns 0x00 (0000ms, 3740ms total)
T3918 005:945 JLINK_ReadReg(R0)  returns 0x00000000 (0000ms, 3740ms total)
T3918 005:947 JLINK_WriteMem(0x20000174, 0x028C Bytes, ...) - Data: 55 FF 00 27 49 49 38 20 78 43 68 39 41 18 00 E0 ... -- CPU_WriteMem(652 bytes @ 0x20000174)  returns 0x28C (0010ms, 3750ms total)
T3918 005:957 JLINK_WriteMem(0x20000400, 0x0174 Bytes, ...) - Data: 38 B5 2C 4D 00 24 28 78 00 28 0F D0 FE F7 BF F8 ... -- CPU_WriteMem(372 bytes @ 0x20000400)  returns 0x174 (0006ms, 3756ms total)
T3918 005:963 JLINK_WriteReg(R0, 0x00002400)  returns 0x00 (0000ms, 3756ms total)
T3918 005:963 JLINK_WriteReg(R1, 0x00000400)  returns 0x00 (0000ms, 3756ms total)
T3918 005:963 JLINK_WriteReg(R2, 0x20000174)  returns 0x00 (0000ms, 3756ms total)
T3918 005:963 JLINK_WriteReg(R3, 0x00000000)  returns 0x00 (0000ms, 3756ms total)
T3918 005:963 JLINK_WriteReg(R4, 0x00000000)  returns 0x00 (0000ms, 3756ms total)
T3918 005:963 JLINK_WriteReg(R5, 0x00000000)  returns 0x00 (0000ms, 3756ms total)
T3918 005:963 JLINK_WriteReg(R6, 0x00000000)  returns 0x00 (0000ms, 3756ms total)
T3918 005:963 JLINK_WriteReg(R7, 0x00000000)  returns 0x00 (0001ms, 3757ms total)
T3918 005:964 JLINK_WriteReg(R8, 0x00000000)  returns 0x00 (0000ms, 3757ms total)
T3918 005:964 JLINK_WriteReg(R9, 0x20000170)  returns 0x00 (0000ms, 3757ms total)
T3918 005:964 JLINK_WriteReg(R10, 0x00000000)  returns 0x00 (0000ms, 3757ms total)
T3918 005:964 JLINK_WriteReg(R11, 0x00000000)  returns 0x00 (0000ms, 3757ms total)
T3918 005:964 JLINK_WriteReg(R12, 0x00000000)  returns 0x00 (0000ms, 3757ms total)
T3918 005:964 JLINK_WriteReg(R13 (SP), 0x20001000)  returns 0x00 (0000ms, 3757ms total)
T3918 005:964 JLINK_WriteReg(R14, 0x20000001)  returns 0x00 (0000ms, 3757ms total)
T3918 005:964 JLINK_WriteReg(R15 (PC), 0x200000F6)  returns 0x00 (0000ms, 3757ms total)
T3918 005:964 JLINK_WriteReg(XPSR, 0x01000000)  returns 0x00 (0000ms, 3757ms total)
T3918 005:964 JLINK_WriteReg(MSP, 0x20001000)  returns 0x00 (0000ms, 3757ms total)
T3918 005:964 JLINK_WriteReg(PSP, 0x20001000)  returns 0x00 (0001ms, 3758ms total)
T3918 005:965 JLINK_WriteReg(CFBP, 0x00000000)  returns 0x00 (0000ms, 3758ms total)
T3918 005:965 JLINK_SetBPEx(Addr = 0x20000000, Type = 0xFFFFFFF2)  returns 0x0000000B (0000ms, 3758ms total)
T3918 005:965 JLINK_Go() -- CPU_ReadMem(4 bytes @ 0xE0001000) -- CPU_WriteMem(4 bytes @ 0xE0001000) (0004ms, 3762ms total)
T3918 005:969 JLINK_IsHalted()  returns FALSE (0001ms, 3763ms total)
T3918 005:984 JLINK_IsHalted()  returns FALSE (0000ms, 3762ms total)
T3918 005:986 JLINK_IsHalted()  returns FALSE (0000ms, 3762ms total)
T3918 005:989 JLINK_IsHalted()  returns FALSE (0000ms, 3762ms total)
T3918 005:991 JLINK_IsHalted()  returns FALSE (0000ms, 3762ms total)
T3918 005:993 JLINK_IsHalted()  returns FALSE (0000ms, 3762ms total)
T3918 005:995 JLINK_IsHalted() -- CPU_ReadMem(2 bytes @ 0x20000000)  returns TRUE (0007ms, 3769ms total)
T3918 006:002 JLINK_ReadReg(R15 (PC))  returns 0x20000000 (0000ms, 3762ms total)
T3918 006:002 JLINK_ClrBPEx(BPHandle = 0x0000000B)  returns 0x00 (0000ms, 3762ms total)
T3918 006:002 JLINK_ReadReg(R0)  returns 0x00000000 (0000ms, 3762ms total)
T3918 006:004 JLINK_WriteMem(0x20000174, 0x028C Bytes, ...) - Data: 00 07 01 D4 01 26 02 E0 02 26 00 E0 03 26 30 46 ... -- CPU_WriteMem(652 bytes @ 0x20000174)  returns 0x28C (0010ms, 3772ms total)
T3918 006:014 JLINK_WriteMem(0x20000400, 0x0174 Bytes, ...) - Data: 04 22 69 46 30 46 FD F7 0B FC F8 BD 74 02 00 20 ... -- CPU_WriteMem(372 bytes @ 0x20000400)  returns 0x174 (0006ms, 3778ms total)
T3918 006:020 JLINK_WriteReg(R0, 0x00002800)  returns 0x00 (0000ms, 3778ms total)
T3918 006:020 JLINK_WriteReg(R1, 0x00000400)  returns 0x00 (0000ms, 3778ms total)
T3918 006:020 JLINK_WriteReg(R2, 0x20000174)  returns 0x00 (0000ms, 3778ms total)
T3918 006:020 JLINK_WriteReg(R3, 0x00000000)  returns 0x00 (0000ms, 3778ms total)
T3918 006:020 JLINK_WriteReg(R4, 0x00000000)  returns 0x00 (0000ms, 3778ms total)
T3918 006:020 JLINK_WriteReg(R5, 0x00000000)  returns 0x00 (0000ms, 3778ms total)
T3918 006:020 JLINK_WriteReg(R6, 0x00000000)  returns 0x00 (0000ms, 3778ms total)
T3918 006:020 JLINK_WriteReg(R7, 0x00000000)  returns 0x00 (0000ms, 3778ms total)
T3918 006:020 JLINK_WriteReg(R8, 0x00000000)  returns 0x00 (0000ms, 3778ms total)
T3918 006:020 JLINK_WriteReg(R9, 0x20000170)  returns 0x00 (0000ms, 3778ms total)
T3918 006:020 JLINK_WriteReg(R10, 0x00000000)  returns 0x00 (0000ms, 3778ms total)
T3918 006:020 JLINK_WriteReg(R11, 0x00000000)  returns 0x00 (0000ms, 3778ms total)
T3918 006:020 JLINK_WriteReg(R12, 0x00000000)  returns 0x00 (0000ms, 3778ms total)
T3918 006:020 JLINK_WriteReg(R13 (SP), 0x20001000)  returns 0x00 (0000ms, 3778ms total)
T3918 006:020 JLINK_WriteReg(R14, 0x20000001)  returns 0x00 (0000ms, 3778ms total)
T3918 006:020 JLINK_WriteReg(R15 (PC), 0x200000F6)  returns 0x00 (0000ms, 3778ms total)
T3918 006:020 JLINK_WriteReg(XPSR, 0x01000000)  returns 0x00 (0000ms, 3778ms total)
T3918 006:020 JLINK_WriteReg(MSP, 0x20001000)  returns 0x00 (0000ms, 3778ms total)
T3918 006:020 JLINK_WriteReg(PSP, 0x20001000)  returns 0x00 (0000ms, 3778ms total)
T3918 006:020 JLINK_WriteReg(CFBP, 0x00000000)  returns 0x00 (0000ms, 3778ms total)
T3918 006:020 JLINK_SetBPEx(Addr = 0x20000000, Type = 0xFFFFFFF2)  returns 0x0000000C (0000ms, 3778ms total)
T3918 006:020 JLINK_Go() -- CPU_ReadMem(4 bytes @ 0xE0001000) -- CPU_WriteMem(4 bytes @ 0xE0001000) (0006ms, 3784ms total)
T3918 006:026 JLINK_IsHalted()  returns FALSE (0000ms, 3784ms total)
T3918 006:037 JLINK_IsHalted()  returns FALSE (0000ms, 3784ms total)
T3918 006:039 JLINK_IsHalted()  returns FALSE (0000ms, 3784ms total)
T3918 006:045 JLINK_IsHalted()  returns FALSE (0001ms, 3785ms total)
T3918 006:047 JLINK_IsHalted()  returns FALSE (0001ms, 3785ms total)
T3918 006:049 JLINK_IsHalted()  returns FALSE (0001ms, 3785ms total)
T3918 006:052 JLINK_IsHalted() -- CPU_ReadMem(2 bytes @ 0x20000000)  returns TRUE (0007ms, 3791ms total)
T3918 006:059 JLINK_ReadReg(R15 (PC))  returns 0x20000000 (0000ms, 3784ms total)
T3918 006:059 JLINK_ClrBPEx(BPHandle = 0x0000000C)  returns 0x00 (0000ms, 3784ms total)
T3918 006:059 JLINK_ReadReg(R0)  returns 0x00000000 (0000ms, 3784ms total)
T3918 006:059 JLINK_WriteMem(0x20000174, 0x028C Bytes, ...) - Data: 09 48 89 1C 07 E0 80 1C C0 B2 01 22 07 4B 89 1A ... -- CPU_WriteMem(652 bytes @ 0x20000174)  returns 0x28C (0010ms, 3794ms total)
T3918 006:069 JLINK_WriteMem(0x20000400, 0x0174 Bytes, ...) - Data: 65 49 09 78 02 29 02 D1 41 21 09 06 01 63 63 49 ... -- CPU_WriteMem(372 bytes @ 0x20000400)  returns 0x174 (0006ms, 3800ms total)
T3918 006:075 JLINK_WriteReg(R0, 0x00002C00)  returns 0x00 (0000ms, 3800ms total)
T3918 006:075 JLINK_WriteReg(R1, 0x00000400)  returns 0x00 (0000ms, 3800ms total)
T3918 006:075 JLINK_WriteReg(R2, 0x20000174)  returns 0x00 (0000ms, 3800ms total)
T3918 006:075 JLINK_WriteReg(R3, 0x00000000)  returns 0x00 (0000ms, 3800ms total)
T3918 006:075 JLINK_WriteReg(R4, 0x00000000)  returns 0x00 (0000ms, 3800ms total)
T3918 006:075 JLINK_WriteReg(R5, 0x00000000)  returns 0x00 (0000ms, 3800ms total)
T3918 006:075 JLINK_WriteReg(R6, 0x00000000)  returns 0x00 (0000ms, 3800ms total)
T3918 006:075 JLINK_WriteReg(R7, 0x00000000)  returns 0x00 (0000ms, 3800ms total)
T3918 006:075 JLINK_WriteReg(R8, 0x00000000)  returns 0x00 (0000ms, 3800ms total)
T3918 006:075 JLINK_WriteReg(R9, 0x20000170)  returns 0x00 (0000ms, 3800ms total)
T3918 006:075 JLINK_WriteReg(R10, 0x00000000)  returns 0x00 (0000ms, 3800ms total)
T3918 006:075 JLINK_WriteReg(R11, 0x00000000)  returns 0x00 (0000ms, 3800ms total)
T3918 006:075 JLINK_WriteReg(R12, 0x00000000)  returns 0x00 (0000ms, 3800ms total)
T3918 006:075 JLINK_WriteReg(R13 (SP), 0x20001000)  returns 0x00 (0000ms, 3800ms total)
T3918 006:075 JLINK_WriteReg(R14, 0x20000001)  returns 0x00 (0000ms, 3800ms total)
T3918 006:075 JLINK_WriteReg(R15 (PC), 0x200000F6)  returns 0x00 (0000ms, 3800ms total)
T3918 006:075 JLINK_WriteReg(XPSR, 0x01000000)  returns 0x00 (0000ms, 3800ms total)
T3918 006:075 JLINK_WriteReg(MSP, 0x20001000)  returns 0x00 (0000ms, 3800ms total)
T3918 006:075 JLINK_WriteReg(PSP, 0x20001000)  returns 0x00 (0000ms, 3800ms total)
T3918 006:075 JLINK_WriteReg(CFBP, 0x00000000)  returns 0x00 (0000ms, 3800ms total)
T3918 006:075 JLINK_SetBPEx(Addr = 0x20000000, Type = 0xFFFFFFF2)  returns 0x0000000D (0000ms, 3800ms total)
T3918 006:075 JLINK_Go() -- CPU_ReadMem(4 bytes @ 0xE0001000) -- CPU_WriteMem(4 bytes @ 0xE0001000) (0005ms, 3805ms total)
T3918 006:080 JLINK_IsHalted()  returns FALSE (0001ms, 3806ms total)
T3918 006:095 JLINK_IsHalted()  returns FALSE (0001ms, 3806ms total)
T3918 006:097 JLINK_IsHalted()  returns FALSE (0001ms, 3806ms total)
T3918 006:099 JLINK_IsHalted()  returns FALSE (0000ms, 3805ms total)
T3918 006:101 JLINK_IsHalted()  returns FALSE (0000ms, 3805ms total)
T3918 006:103 JLINK_IsHalted()  returns FALSE (0000ms, 3805ms total)
T3918 006:105 JLINK_IsHalted() -- CPU_ReadMem(2 bytes @ 0x20000000)  returns TRUE (0007ms, 3812ms total)
T3918 006:112 JLINK_ReadReg(R15 (PC))  returns 0x20000000 (0000ms, 3805ms total)
T3918 006:112 JLINK_ClrBPEx(BPHandle = 0x0000000D)  returns 0x00 (0000ms, 3805ms total)
T3918 006:112 JLINK_ReadReg(R0)  returns 0x00000000 (0000ms, 3805ms total)
T3918 006:112 JLINK_WriteMem(0x20000174, 0x028C Bytes, ...) - Data: 32 3A 0E 21 24 20 14 F0 B7 FA FE F7 25 FF 00 20 ... -- CPU_WriteMem(652 bytes @ 0x20000174)  returns 0x28C (0011ms, 3816ms total)
T3918 006:123 JLINK_WriteMem(0x20000400, 0x0174 Bytes, ...) - Data: 00 F0 60 FD 0C F0 3A FE 03 20 08 F0 71 FF 04 20 ... -- CPU_WriteMem(372 bytes @ 0x20000400)  returns 0x174 (0006ms, 3822ms total)
T3918 006:129 JLINK_WriteReg(R0, 0x00003000)  returns 0x00 (0000ms, 3822ms total)
T3918 006:129 JLINK_WriteReg(R1, 0x00000400)  returns 0x00 (0000ms, 3822ms total)
T3918 006:129 JLINK_WriteReg(R2, 0x20000174)  returns 0x00 (0000ms, 3822ms total)
T3918 006:129 JLINK_WriteReg(R3, 0x00000000)  returns 0x00 (0000ms, 3822ms total)
T3918 006:129 JLINK_WriteReg(R4, 0x00000000)  returns 0x00 (0000ms, 3822ms total)
T3918 006:129 JLINK_WriteReg(R5, 0x00000000)  returns 0x00 (0000ms, 3822ms total)
T3918 006:129 JLINK_WriteReg(R6, 0x00000000)  returns 0x00 (0000ms, 3822ms total)
T3918 006:129 JLINK_WriteReg(R7, 0x00000000)  returns 0x00 (0000ms, 3822ms total)
T3918 006:129 JLINK_WriteReg(R8, 0x00000000)  returns 0x00 (0000ms, 3822ms total)
T3918 006:129 JLINK_WriteReg(R9, 0x20000170)  returns 0x00 (0000ms, 3822ms total)
